!Keysight Technologies,P9371A,MY57212015,Z.14.24.19
!Date: Monday, February 21, 2022 10:51:46
!Correction: S11(C  1-Port  ) 
!S1P File: Measurement: S11:
# Hz S  dB   R 50
1300000000 -0.79011279 55.549572
1300010000 -0.78794289 55.556789
1300020000 -0.77896923 55.491859
1300030000 -0.78369868 55.581932
1300040000 -0.78177863 55.468212
1300050000 -0.78715277 55.534889
1300060000 -0.79885375 55.547588
1300070000 -0.79023015 55.469288
1300080000 -0.79027182 55.505466
1300090000 -0.78546631 55.530231
1300100000 -0.79605722 55.560448
1300110000 -0.79376346 55.542492
1300120000 -0.79190511 55.481529
1300130000 -0.78667682 55.513584
1300140000 -0.78789103 55.532173
1300150000 -0.79531324 55.47694
1300160000 -0.79878032 55.463181
1300170000 -0.78703052 55.502132
1300180000 -0.78343952 55.476685
1300190000 -0.78622198 55.468956
1300200000 -0.79539472 55.47953
1300210000 -0.79142147 55.507092
1300220000 -0.78625053 55.506214
1300230000 -0.79749244 55.527393
1300240000 -0.80255598 55.460304
1300250000 -0.79887152 55.451221
1300260000 -0.79488301 55.467739
1300270000 -0.79946429 55.429543
1300280000 -0.7924298 55.460346
1300290000 -0.78698868 55.47847
1300300000 -0.80071163 55.460407
1300310000 -0.796579 55.433163
1300320000 -0.79336882 55.452904
1300330000 -0.80068177 55.445671
1300340000 -0.79936004 55.420475
1300350000 -0.788203 55.379711
1300360000 -0.7926591 55.478031
1300370000 -0.79498619 55.455524
1300380000 -0.79609734 55.451168
1300390000 -0.79912633 55.428844
1300400000 -0.7978999 55.491219
1300410000 -0.79494172 55.474983
1300420000 -0.79833794 55.438152
1300430000 -0.79458892 55.437721
1300440000 -0.79087609 55.507851
1300450000 -0.8022278 55.535084
1300460000 -0.79279208 55.454277
1300470000 -0.79832548 55.456326
1300480000 -0.78201294 55.434879
1300490000 -0.79917365 55.42131
1300500000 -0.79305249 55.421722
1300510000 -0.78847241 55.355488
1300520000 -0.7930674 55.427399
1300530000 -0.79570246 55.426785
1300540000 -0.80068552 55.425022
1300550000 -0.7967056 55.406437
1300560000 -0.79765731 55.348076
1300570000 -0.79823059 55.3908
1300580000 -0.79251373 55.401249
1300590000 -0.79942286 55.460243
1300600000 -0.80718029 55.371994
1300610000 -0.79609054 55.377686
1300620000 -0.80774951 55.361858
1300630000 -0.8021512 55.395538
1300640000 -0.79241246 55.390736
1300650000 -0.79077798 55.361877
1300660000 -0.79379922 55.333733
1300670000 -0.7980091 55.361961
1300680000 -0.79578733 55.379845
1300690000 -0.79709744 55.352783
1300700000 -0.79626715 55.354282
1300710000 -0.80179715 55.377052
1300720000 -0.79656035 55.355968
1300730000 -0.79880458 55.394382
1300740000 -0.79937899 55.347187
1300750000 -0.78732473 55.309898
1300760000 -0.80185163 55.344406
1300770000 -0.80172056 55.339134
1300780000 -0.80059588 55.310802
1300790000 -0.79199272 55.360424
1300800000 -0.79989183 55.311214
1300810000 -0.81201732 55.340256
1300820000 -0.80399275 55.285286
1300830000 -0.79683125 55.341927
1300840000 -0.79207039 55.268158
1300850000 -0.80570197 55.297993
1300860000 -0.80876666 55.408569
1300870000 -0.79648602 55.303612
1300880000 -0.80798775 55.290653
1300890000 -0.79500794 55.30896
1300900000 -0.79970264 55.349102
1300910000 -0.79720384 55.305557
1300920000 -0.80033749 55.330376
1300930000 -0.81082344 55.328831
1300940000 -0.79897887 55.334438
1300950000 -0.80813175 55.327778
1300960000 -0.79904795 55.269302
1300970000 -0.79169607 55.275822
1300980000 -0.79801935 55.320606
1300990000 -0.79936033 55.284668
1301000000 -0.80756557 55.323246
1301010000 -0.79613715 55.269909
1301020000 -0.8123166 55.297798
1301030000 -0.79080158 55.305367
1301040000 -0.8001464 55.280838
1301050000 -0.80608559 55.321381
1301060000 -0.7997123 55.307354
1301070000 -0.79799509 55.241592
1301080000 -0.80202788 55.249683
1301090000 -0.80253541 55.245586
1301100000 -0.8120479 55.281055
1301110000 -0.81753808 55.221313
1301120000 -0.79461819 55.308578
1301130000 -0.81256908 55.209251
1301140000 -0.80936545 55.278656
1301150000 -0.80398059 55.245567
1301160000 -0.80292904 55.303711
1301170000 -0.80598897 55.278019
1301180000 -0.79628021 55.245773
1301190000 -0.80559945 55.260715
1301200000 -0.80213314 55.21825
1301210000 -0.80915397 55.186207
1301220000 -0.8089307 55.219898
1301230000 -0.79720068 55.250645
1301240000 -0.79527497 55.199112
1301250000 -0.79982275 55.23695
1301260000 -0.78922111 55.189056
1301270000 -0.80557013 55.237896
1301280000 -0.79870784 55.170361
1301290000 -0.79983646 55.198288
1301300000 -0.80026031 55.21207
1301310000 -0.80911314 55.205078
1301320000 -0.80859017 55.199944
1301330000 -0.80562466 55.178963
1301340000 -0.81078321 55.177876
1301350000 -0.81434667 55.150391
1301360000 -0.80574965 55.126881
1301370000 -0.80879843 55.194927
1301380000 -0.80738914 55.154026
1301390000 -0.80422789 55.182384
1301400000 -0.80744243 55.180901
1301410000 -0.80157083 55.162544
1301420000 -0.79963917 55.181488
1301430000 -0.81145561 55.18206
1301440000 -0.818174 55.165466
1301450000 -0.81588882 55.167881
1301460000 -0.80162936 55.12109
1301470000 -0.80765754 55.114914
1301480000 -0.80195999 55.163055
1301490000 -0.80384755 55.17786
1301500000 -0.81165218 55.167873
1301510000 -0.80780846 55.171936
1301520000 -0.81785899 55.129002
1301530000 -0.80981398 55.202862
1301540000 -0.80309135 55.149681
1301550000 -0.80689907 55.10659
1301560000 -0.80794847 55.095818
1301570000 -0.80977184 55.182392
1301580000 -0.79999733 55.155426
1301590000 -0.81095666 55.132816
1301600000 -0.80992347 55.157097
1301610000 -0.81457651 55.11668
1301620000 -0.80508155 55.114124
1301630000 -0.80809683 55.115906
1301640000 -0.81042224 55.081181
1301650000 -0.80647582 55.061775
1301660000 -0.80566114 55.095028
1301670000 -0.79321438 55.146828
1301680000 -0.80945152 55.145004
1301690000 -0.80127758 55.106537
1301700000 -0.8033691 55.087181
1301710000 -0.7995072 55.084572
1301720000 -0.81993765 55.096748
1301730000 -0.81137633 55.096264
1301740000 -0.8039133 55.05965
1301750000 -0.81509864 55.118114
1301760000 -0.80774176 55.123951
1301770000 -0.80862069 55.10564
1301780000 -0.80625111 55.073917
1301790000 -0.81202072 55.087208
1301800000 -0.81851345 55.069443
1301810000 -0.8107096 55.140495
1301820000 -0.81370538 55.034527
1301830000 -0.81723404 54.998352
1301840000 -0.80833572 55.072109
1301850000 -0.80005431 55.116356
1301860000 -0.8101939 55.066353
1301870000 -0.81057447 55.025543
1301880000 -0.81817716 55.063828
1301890000 -0.81165719 55.015141
1301900000 -0.80619717 55.028801
1301910000 -0.80696017 55.041294
1301920000 -0.80358875 55.044258
1301930000 -0.81921047 55.05835
1301940000 -0.80917269 55.022694
1301950000 -0.8162387 55.058849
1301960000 -0.80449772 54.961098
1301970000 -0.81004226 55.097172
1301980000 -0.81525481 55.032955
1301990000 -0.80983078 55.026142
1302000000 -0.81475264 55.074749
1302010000 -0.81115699 55.039135
1302020000 -0.81928706 54.9328
1302030000 -0.80569607 55.065266
1302040000 -0.8204329 54.945236
1302050000 -0.80950171 55.04562
1302060000 -0.79965436 55.027584
1302070000 -0.81241244 54.989548
1302080000 -0.81071985 54.98222
1302090000 -0.81160849 54.962151
1302100000 -0.81933987 55.01263
1302110000 -0.81083721 54.998928
1302120000 -0.81505054 55.011089
1302130000 -0.80731434 54.943924
1302140000 -0.81455868 54.974873
1302150000 -0.80649137 54.988831
1302160000 -0.82095009 54.996441
1302170000 -0.81191492 55.021801
1302180000 -0.81340569 54.948162
1302190000 -0.81250042 55.001957
1302200000 -0.81866252 54.981461
1302210000 -0.81169087 54.950512
1302220000 -0.81657606 54.978889
1302230000 -0.82015336 55.011703
1302240000 -0.8088184 55.019886
1302250000 -0.81776744 55.058109
1302260000 -0.820068 54.901093
1302270000 -0.81673509 54.936115
1302280000 -0.81888914 54.924477
1302290000 -0.81624615 54.99865
1302300000 -0.81470078 54.943714
1302310000 -0.80654967 54.926239
1302320000 -0.81355768 54.9534
1302330000 -0.81114793 54.933346
1302340000 -0.81453025 54.947701
1302350000 -0.82219619 54.883766
1302360000 -0.81416368 54.870518
1302370000 -0.81152612 54.899864
1302380000 -0.81500024 54.90575
1302390000 -0.81243801 54.876686
1302400000 -0.82141733 54.960709
1302410000 -0.81656981 54.800457
1302420000 -0.81035769 54.9501
1302430000 -0.81292337 54.973835
1302440000 -0.82050604 54.930935
1302450000 -0.81073672 54.835102
1302460000 -0.81590694 54.853302
1302470000 -0.81335509 54.878334
1302480000 -0.81396824 54.920387
1302490000 -0.81965125 54.87159
1302500000 -0.81251794 54.896667
1302510000 -0.81788152 54.853916
1302520000 -0.81824368 54.917439
1302530000 -0.82036567 54.935974
1302540000 -0.81038857 54.870041
1302550000 -0.81297863 54.913883
1302560000 -0.81600875 54.892899
1302570000 -0.81359172 54.911556
1302580000 -0.81524605 54.816647
1302590000 -0.81510174 54.922794
1302600000 -0.81765336 54.790924
1302610000 -0.81619966 54.815285
1302620000 -0.82060361 54.880306
1302630000 -0.80936855 54.834225
1302640000 -0.82316476 54.870125
1302650000 -0.81757587 54.883167
1302660000 -0.8183375 54.851273
1302670000 -0.81723344 54.850338
1302680000 -0.82151866 54.863728
1302690000 -0.82160342 54.817177
1302700000 -0.81589818 54.84304
1302710000 -0.81722218 54.868317
1302720000 -0.81491315 54.861225
1302730000 -0.81398571 54.809055
1302740000 -0.82302397 54.853668
1302750000 -0.81861597 54.884697
1302760000 -0.82752693 54.874218
1302770000 -0.81260717 54.805954
1302780000 -0.81356454 54.754372
1302790000 -0.81562114 54.821442
1302800000 -0.82038319 54.816227
1302810000 -0.82025999 54.854092
1302820000 -0.80368716 54.800808
1302830000 -0.82021654 54.797272
1302840000 -0.8227424 54.706535
1302850000 -0.83055693 54.771839
1302860000 -0.8260746 54.871746
1302870000 -0.81636333 54.716351
1302880000 -0.81523103 54.81221
1302890000 -0.82549262 54.847687
1302900000 -0.80847168 54.792423
1302910000 -0.8213129 54.837326
1302920000 -0.8174234 54.803997
1302930000 -0.82313222 54.761101
1302940000 -0.81995672 54.774914
1302950000 -0.81771028 54.814556
1302960000 -0.81870598 54.752853
1302970000 -0.81810558 54.741714
1302980000 -0.82475322 54.744946
1302990000 -0.82616758 54.748226
1303000000 -0.81552213 54.709843
1303010000 -0.82428437 54.752346
1303020000 -0.8241235 54.780342
1303030000 -0.81892759 54.764221
1303040000 -0.81903571 54.772629
1303050000 -0.81916797 54.684677
1303060000 -0.81813651 54.754879
1303070000 -0.82136041 54.752834
1303080000 -0.81551057 54.715275
1303090000 -0.82175577 54.715485
1303100000 -0.82230252 54.765011
1303110000 -0.82364285 54.72982
1303120000 -0.82145363 54.754726
1303130000 -0.82921916 54.723984
1303140000 -0.81600505 54.691639
1303150000 -0.82892966 54.688393
1303160000 -0.82065207 54.720627
1303170000 -0.82260597 54.673203
1303180000 -0.82702744 54.632351
1303190000 -0.81401074 54.728226
1303200000 -0.82513356 54.663979
1303210000 -0.82336408 54.695259
1303220000 -0.81549841 54.686722
1303230000 -0.82022655 54.682125
1303240000 -0.83061463 54.681774
1303250000 -0.82139045 54.653149
1303260000 -0.82172042 54.723679
1303270000 -0.81904852 54.654636
1303280000 -0.82233632 54.669518
1303290000 -0.82309031 54.728226
1303300000 -0.82467371 54.678818
1303310000 -0.8145709 54.71199
1303320000 -0.82924896 54.693184
1303330000 -0.8281368 54.642544
1303340000 -0.8286925 54.691631
1303350000 -0.818304 54.579002
1303360000 -0.81985134 54.651955
1303370000 -0.82219839 54.657326
1303380000 -0.82985085 54.669617
1303390000 -0.82919693 54.691788
1303400000 -0.83011943 54.71587
1303410000 -0.81629586 54.648354
1303420000 -0.8182559 54.637764
1303430000 -0.82722789 54.661606
1303440000 -0.82393074 54.637455
1303450000 -0.81986696 54.591885
1303460000 -0.83089012 54.635101
1303470000 -0.82838738 54.608395
1303480000 -0.82101482 54.646622
1303490000 -0.82538801 54.653194
1303500000 -0.82787806 54.604321
1303510000 -0.82436699 54.663506
1303520000 -0.83305931 54.559319
1303530000 -0.83117193 54.568439
1303540000 -0.82679886 54.58448
1303550000 -0.82052732 54.583786
1303560000 -0.8248468 54.588562
1303570000 -0.82460552 54.572536
1303580000 -0.81996298 54.646225
1303590000 -0.81920952 54.634106
1303600000 -0.82458925 54.592197
1303610000 -0.82691407 54.609413
1303620000 -0.8192386 54.63739
1303630000 -0.82437575 54.593975
1303640000 -0.82433945 54.638172
1303650000 -0.83351034 54.623444
1303660000 -0.82795697 54.559513
1303670000 -0.82206607 54.54438
1303680000 -0.83448142 54.551529
1303690000 -0.82336313 54.563583
1303700000 -0.82966161 54.546043
1303710000 -0.82136166 54.638615
1303720000 -0.8321569 54.567886
1303730000 -0.82688528 54.533863
1303740000 -0.83548725 54.574406
1303750000 -0.83336949 54.639626
1303760000 -0.82771647 54.549171
1303770000 -0.83577532 54.506966
1303780000 -0.82848573 54.51186
1303790000 -0.82302111 54.578465
1303800000 -0.83747953 54.496487
1303810000 -0.83193713 54.538403
1303820000 -0.82331151 54.502758
1303830000 -0.83532846 54.533386
1303840000 -0.83367121 54.541157
1303850000 -0.83373237 54.60202
1303860000 -0.82044542 54.520069
1303870000 -0.8374086 54.458824
1303880000 -0.82650262 54.556141
1303890000 -0.83034384 54.539703
1303900000 -0.83461756 54.504696
1303910000 -0.82348675 54.560844
1303920000 -0.8271746 54.486702
1303930000 -0.83721679 54.446621
1303940000 -0.83031058 54.511616
1303950000 -0.82896256 54.514877
1303960000 -0.8341552 54.579407
1303970000 -0.83345449 54.507961
1303980000 -0.83064342 54.479427
1303990000 -0.8249163 54.566223
1304000000 -0.83985591 54.467327
1304010000 -0.82797891 54.477211
1304020000 -0.83000946 54.526939
1304030000 -0.83829957 54.51252
1304040000 -0.83530778 54.487892
1304050000 -0.83228922 54.542301
1304060000 -0.83354294 54.443974
1304070000 -0.82276553 54.474453
1304080000 -0.83808792 54.576443
1304090000 -0.84373158 54.44228
1304100000 -0.82243514 54.440472
1304110000 -0.8349545 54.502472
1304120000 -0.83452469 54.428581
1304130000 -0.83140421 54.399815
1304140000 -0.83519107 54.445126
1304150000 -0.83422983 54.444611
1304160000 -0.8283999 54.424404
1304170000 -0.83257705 54.424778
1304180000 -0.83187848 54.38588
1304190000 -0.82569826 54.470146
1304200000 -0.83917814 54.407429
1304210000 -0.82941186 54.398876
1304220000 -0.82232225 54.434315
1304230000 -0.8248778 54.440544
1304240000 -0.83232433 54.482113
1304250000 -0.84004086 54.375549
1304260000 -0.83191109 54.432755
1304270000 -0.83498585 54.453747
1304280000 -0.83623064 54.382114
1304290000 -0.83446258 54.398018
1304300000 -0.83949786 54.410061
1304310000 -0.82360971 54.46806
1304320000 -0.83497334 54.459587
1304330000 -0.82588047 54.409981
1304340000 -0.83642429 54.435715
1304350000 -0.82295448 54.437725
1304360000 -0.83720547 54.451237
1304370000 -0.83154684 54.46574
1304380000 -0.83032 54.37431
1304390000 -0.84297717 54.448956
1304400000 -0.84160632 54.365303
1304410000 -0.83236444 54.460335
1304420000 -0.81903887 54.317711
1304430000 -0.83132458 54.374393
1304440000 -0.8267287 54.384895
1304450000 -0.83577216 54.427616
1304460000 -0.83672684 54.400623
1304470000 -0.84507161 54.358662
1304480000 -0.82907408 54.381763
1304490000 -0.84067005 54.40926
1304500000 -0.83955091 54.360085
1304510000 -0.83516473 54.356434
1304520000 -0.82925677 54.326805
1304530000 -0.83701652 54.335613
1304540000 -0.8324874 54.405567
1304550000 -0.83437634 54.360279
1304560000 -0.83756304 54.319725
1304570000 -0.84009272 54.29364
1304580000 -0.83663893 54.344032
1304590000 -0.84618211 54.293907
1304600000 -0.84050423 54.290146
1304610000 -0.83850616 54.308205
1304620000 -0.83337671 54.29916
1304630000 -0.83815259 54.294102
1304640000 -0.84389502 54.281841
1304650000 -0.84296584 54.373005
1304660000 -0.83410501 54.329945
1304670000 -0.84173828 54.309799
1304680000 -0.83642989 54.248127
1304690000 -0.8466832 54.359791
1304700000 -0.83408803 54.276348
1304710000 -0.8378098 54.283485
1304720000 -0.83535987 54.298374
1304730000 -0.83768326 54.324532
1304740000 -0.84291494 54.269447
1304750000 -0.83968627 54.243137
1304760000 -0.83576775 54.309448
1304770000 -0.83083022 54.290485
1304780000 -0.83895928 54.251114
1304790000 -0.83934456 54.233601
1304800000 -0.83315843 54.283176
1304810000 -0.84245604 54.233692
1304820000 -0.84579307 54.234791
1304830000 -0.83865875 54.281578
1304840000 -0.83552051 54.291298
1304850000 -0.83724689 54.253159
1304860000 -0.82890493 54.231972
1304870000 -0.83925664 54.279816
1304880000 -0.83587509 54.254913
1304890000 -0.8474521 54.320229
1304900000 -0.83293486 54.199127
1304910000 -0.83445191 54.234558
1304920000 -0.8352325 54.196133
1304930000 -0.84378499 54.228043
1304940000 -0.83056384 54.259476
1304950000 -0.83952612 54.236198
1304960000 -0.84505397 54.175755
1304970000 -0.83113176 54.256222
1304980000 -0.84390163 54.235775
1304990000 -0.83816892 54.247383
1305000000 -0.84790206 54.222832
1305010000 -0.84405535 54.219837
1305020000 -0.8359642 54.184769
1305030000 -0.84051114 54.169636
1305040000 -0.83582991 54.255077
1305050000 -0.83626801 54.153587
1305060000 -0.83771122 54.143883
1305070000 -0.84536469 54.181625
1305080000 -0.83490241 54.238361
1305090000 -0.84432733 54.127731
1305100000 -0.84669739 54.170376
1305110000 -0.831276 54.19545
1305120000 -0.84072286 54.16658
1305130000 -0.83950603 54.232384
1305140000 -0.83964229 54.159424
1305150000 -0.84690028 54.154785
1305160000 -0.84112024 54.140255
1305170000 -0.8427738 54.165878
1305180000 -0.84576005 54.168999
1305190000 -0.8469786 54.159618
1305200000 -0.83115435 54.187233
1305210000 -0.84440279 54.164501
1305220000 -0.83758879 54.147583
1305230000 -0.83706832 54.156357
1305240000 -0.84511906 54.085709
1305250000 -0.843934 54.166996
1305260000 -0.84588993 54.10667
1305270000 -0.85792422 54.067738
1305280000 -0.84236616 54.126984
1305290000 -0.84377623 54.117111
1305300000 -0.83907074 54.194046
1305310000 -0.83947337 54.11327
1305320000 -0.85038555 54.11314
1305330000 -0.84587103 54.089809
1305340000 -0.8389979 54.122322
1305350000 -0.84179235 54.085159
1305360000 -0.84671056 54.139568
1305370000 -0.8440057 54.144592
1305380000 -0.84447163 54.165554
1305390000 -0.84182096 54.186646
1305400000 -0.83814412 54.120892
1305410000 -0.84516847 54.076496
1305420000 -0.843117 54.113091
1305430000 -0.84827906 54.078041
1305440000 -0.84217036 54.101326
1305450000 -0.85304272 54.067574
1305460000 -0.83730251 54.071377
1305470000 -0.84425563 54.092064
1305480000 -0.84500241 54.12434
1305490000 -0.84276187 54.086529
1305500000 -0.84474331 54.101013
1305510000 -0.84141403 54.065266
1305520000 -0.84066755 53.982933
1305530000 -0.84559238 54.054829
1305540000 -0.83638787 54.129089
1305550000 -0.8546223 54.100365
1305560000 -0.84759557 54.100952
1305570000 -0.83165401 54.049805
1305580000 -0.85847682 54.094639
1305590000 -0.85201865 54.039986
1305600000 -0.85826957 54.07811
1305610000 -0.84836715 54.043892
1305620000 -0.85384679 54.066509
1305630000 -0.85005933 54.044769
1305640000 -0.85410678 54.061424
1305650000 -0.8421638 53.97707
1305660000 -0.84531718 54.102142
1305670000 -0.8410964 54.048626
1305680000 -0.85041136 54.047409
1305690000 -0.85250783 54.039345
1305700000 -0.85634214 54.041145
1305710000 -0.83851683 54.024887
1305720000 -0.8420676 54.043591
1305730000 -0.85756123 53.963886
1305740000 -0.85237581 54.035999
1305750000 -0.85022938 53.962475
1305760000 -0.84813178 53.919273
1305770000 -0.85080051 54.02346
1305780000 -0.84645295 53.937408
1305790000 -0.84853053 54.003937
1305800000 -0.84240705 54.015427
1305810000 -0.83999723 54.006344
1305820000 -0.85241109 54.023895
1305830000 -0.84906554 53.970798
1305840000 -0.85306698 53.979733
1305850000 -0.84389913 53.967628
1305860000 -0.84985095 53.971184
1305870000 -0.85073 54.010303
1305880000 -0.84526408 54.038746
1305890000 -0.84179735 53.969086
1305900000 -0.84405977 53.976955
1305910000 -0.85094094 53.985786
1305920000 -0.84667188 54.030758
1305930000 -0.85311615 54.002312
1305940000 -0.84861141 53.982807
1305950000 -0.85139126 53.939339
1305960000 -0.84048915 53.940487
1305970000 -0.84918988 53.878193
1305980000 -0.85028416 53.95253
1305990000 -0.84301299 53.957848
1306000000 -0.857705 53.985641
1306010000 -0.84992081 53.924892
1306020000 -0.8592456 53.900562
1306030000 -0.85679495 53.906372
1306040000 -0.85277587 53.944546
